## 一、 核心信号线分类（AHB 的“语言”）

AHB 总线大概有 20 多根信号线，但去掉仲裁和侧带信号，真正干活的核心信号只有以下几组。我们把它们按功能分个类：

### 1. 基础节拍（心脏）

- **`HCLK` (Clock)：** 总线时钟。AHB 上的一切动作，都必须在时钟的**上升沿**触发。
- **`HRESETn` (Reset)：** 复位信号（低电平有效）。

### 2. 控制与地址线（“我要去哪，干什么？”）

- **`HADDR` (Address)：** 地址总线，通常是 32 位。决定了你要访问哪个寄存器或哪块内存。
- **`HWRITE` (Write/Read 控制)：**
    - `1` 代表**写**（Write）。
    - `0` 代表**读**（Read）。
- **`HTRANS` (Transfer Type)：** 传输类型，告诉 Slave 这次操作是不是有效的。比如 `IDLE` (没事干)、`NONSEQ` (发起一次全新的有效传输)。
- **`HSIZE` (Transfer Size)：** 传输大小。告诉 Slave 这次是传 8-bit (Byte)、16-bit (Half-word) 还是 32-bit (Word)。

### 3. 数据线（“货车”）

- **`HWDATA` (Write Data)：** 写数据总线（Master 发给 Slave）。
- **`HRDATA` (Read Data)：** 读数据总线（Slave 发给 Master）。

> **💡 驱动视角的重点：** 虽然 AHB 有两条独立的数据线（读和写分开），但因为**地址线 `HADDR` 只有一组**，所以同一时刻只能进行读，或者进行写，绝不可能同时进行。

### 4. 响应与握手线（“搞定了没？”）

- **`HREADY` (Ready 信号)：** **全场最核心的信号！由 Slave 发出。**
    - `1`：Slave 表示“我准备好了 / 数据处理完了”，允许进入下一步。
    - `0`：Slave 表示“我还没弄完，你给我等着（Wait State）”。
- **`HRESP` (Response 信号)：**
    - `0` (OKAY)：传输成功。
    - `1` (ERROR)：传输失败（比如驱动访问了未对齐的地址，或者非法越界）。

---

## 二、 AHB 的灵魂机制：两级流水线 (Two-Phase Pipeline)

要懂 AHB 的读写交互，必须先懂它唯一的规矩：**所有的传输，都被硬性拆分为两个阶段（Phase）。**

1. **Phase 1：地址阶段 (Address Phase)**
    - 只持续 **1 个**时钟周期。
    - Master 把地址 (`HADDR`) 和控制命令 (`HWRITE`, `HSIZE`) 扔到总线上。
2. **Phase 2：数据阶段 (Data Phase)**
    - 可能持续 **1 个或多个**时钟周期（取决于 Slave 什么时候拉高 `HREADY`）。
    - 真正把数据放到 `HWDATA` 或从 `HRDATA` 读回来。

**流水线的精髓在于“重叠”：** 当上一次传输正在进行 **数据阶段** 时，下一次传输的 **地址阶段** 就可以提前扔到总线上了。这就是为什么它叫“高性能 (High-performance)”总线的原因。

---

## 三、 读写交互实战推演

让我们把这套机制带入到具体的 C 语言驱动代码中，看看底层波形是怎么互动的。

### 场景 1：一次顺畅的“写”操作 (Write)

**驱动代码：** `writel(0xABCD, 0x1000);` （向地址 0x1000 写入 0xABCD）

**总线交互动作：**

- **时钟周期 1 (地址阶段)：**
    - CPU (Master) 把地址 `0x1000` 放到 **`HADDR`** 上。
    - CPU 把 **`HWRITE`** 拉高设为 `1`（表示我要写）。
    - CPU 把 **`HTRANS`** 设为有效（`NONSEQ`）。
- **时钟周期 2 (数据阶段)：**
    - CPU 把数据 `0xABCD` 放到 **`HWDATA`** 总线上。
    - 此时目标寄存器 (Slave) 看到了数据，迅速将其存入，并立刻把 **`HREADY`** 拉高为 `1`，表示“我收到了”。
    - CPU 看到 `HREADY` 为 1，结束这次传输，驱动代码继续往下执行。

---

### 场景 2：一次顺畅的“读”操作 (Read)

**驱动代码：** `val = readl(0x2000);` （从地址 0x2000 读取状态）

**总线交互动作：**

- **时钟周期 1 (地址阶段)：**
    - CPU 把地址 `0x2000` 放到 **`HADDR`** 上。
    - CPU 把 **`HWRITE`** 拉低设为 `0`（表示我要读）。
- **时钟周期 2 (数据阶段)：**
    - 目标寄存器 (Slave) 收到地址后，立刻把自己的状态值放入 **`HRDATA`** 总线上。
    - Slave 把 **`HREADY`** 拉高为 `1`，表示“数据准备好了，你拿走吧”。
    - CPU 采样 `HRDATA` 线上的值，赋给变量 `val`，结束传输。

---

### 场景 3：遇到“慢吞吐”外设（产生 Wait State）

这是驱动工程师在 debug 系统卡顿时最需要理解的场景。 假设我们要读一个慢速的外设（比如一个内部需要运算几个周期才能返回结果的 Crypto 密码引擎）。

**驱动代码：** `val = readl(CRYPTO_RESULT_ADDR);`

**总线交互动作：**

- **时钟周期 1 (地址阶段)：** CPU 发出地址，设为读。
- **时钟周期 2 (数据阶段开始)：**
    - 密码引擎 (Slave) 内部还没算完，拿不出数据。
    - 于是它把 **`HREADY` 拉低为 `0`**。
- **时钟周期 3, 4, 5... (等待状态 Wait State)：**
    - 只要 `HREADY` 是 0，CPU 就会一直卡在这个数据阶段。
    - **驱动体感：** 此时整个 CPU 会被硬件强制挂起（Stall），你的 C 语言代码会一直停在 `readl()` 这一行，动弹不得，无法响应外界的事情。
- **时钟周期 N：**
    - 密码引擎终于算完了，把数据放上 `HRDATA`，并将 **`HREADY` 拉高为 `1`**。
    - CPU 终于拿到数据，解除挂起，执行下一行代码。
## 总结：驱动工程师眼里的信号映射

作为写软件的人，不需要去背那些复杂的时序图，你只需要建立这样的条件反射：

1. **`HADDR` 和 `HSIZE` 报错** ➡️ 你的代码传了未对齐的指针，或者越界访问了非法内存。
2. **`HREADY` 一直等于 0** ➡️ 外设（Slave）出故障了或者死机了，把你的 CPU/DMA 拖死了。
3. **`HRESP` 等于 1 (ERROR)** ➡️ 发生了总线异常（Bus Fault），系统必然抛出严重的中断或 Kernel Panic。
4. **两级流水线意味着** ➡️ 在写 DMA 驱动代码时，如果你发起了连续突发（Burst），地址是提前给出的，数据是延后一拍到达的，这是一种严格的、紧凑的排队机制