## 一、 AXI 协议与 AMBA 架构概述

**1. 核心定义：** AXI（Advanced eXtensible Interface）是 ARM AMBA（Advanced Microcontroller Bus Architecture）协议簇中面向高性能、高带宽、低延迟系统互连的总线标准（当前主流为 AXI3 与 AXI4）。

**2. 核心架构特征：**

- **单向通道分离：** 读写操作并行独立，支持全双工传输。
- **非阻塞传输：** 基于 Outstanding 机制，支持在数据或响应未返回前连续发送地址。
- **无需地址对齐：** 支持非对齐的数据传输（Unaligned Access）。

---

## 二、 Master 与 Slave 主从模型

AXI 总线上的所有通信严格遵循 Master-Slave 模型。

**1. Initiator / Master (主设备)：**

- **行为：** 仅由 Master 负责发起所有的读写事务（Transaction）。Master 负责在总线上驱动地址信号（Address）与控制信号（Control）。
- **SoC 典型代表：** CPU 核心（Cortex-A/M）、GPU、以及**内置 DMA 引擎的高速外设（如 eMMC / PCIe / USB 控​​制器）**。

**2. Target / Slave (从设备)：**

- **行为：** 只能被动响应 Master 发起的事务请求。在写操作中接收数据，在读操作中返回数据及响应状态。
- **SoC 典型代表：** DDR 控制器（Memory Controller）、片上 SRAM、以及各类外设的配置寄存器接口。

---

## 三、 SoC 总线互连架构 (Bus Interconnect / Matrix)

在现代复杂的 SoC 中，Master 与 Slave 并非点对点直连，而是通过**总线互连矩阵 (Interconnect)** 进行路由与调度。

**1. 地址解码 (Address Decoding)：**

- 总线上挂载多个 Slave（如 DDR 映射于 `0x8000_0000`，SRAM 映射于 `0x1000_0000`）。
- 当 Master 发出目标地址时，Interconnect 内部的译码器会根据硬件地址映射表（Memory Map），将 Master 的请求精准路由（Route）到对应的 Slave 端口。

**2. 仲裁机制 (Arbitration)：**

- 当多个 Master（如 CPU 和高速 DMA）在同一时钟周期内试图访问同一个 Slave 端口（如 DDR）时，Interconnect 内部的仲裁器将根据预设的优先级（QoS）或轮询策略，决定总线的访问权归属。

---

## 四、 核心物理架构：五大独立通道 (Five Independent Channels)

一次完整的传输事务由以下五个物理上完全独立的通道协同完成。每个通道均拥有专属的 `VALID` 和 `READY` 握手信号。

### 1. 写操作相关通道 (Write Transaction)

- **AW (Write Address Channel) - 写地址通道**
    - **方向：** Master -> Slave
    - **作用：** 传输写操作的起始物理地址（`AWADDR`）及控制属性（突发长度 `AWLEN`、大小 `AWSIZE`、类型 `AWBURST` 等）。
- **W (Write Data Channel) - 写数据通道**
    - **方向：** Master -> Slave
    - **作用：** 传输核心写数据（`WDATA`）、写选通信号（`WSTRB`）以及标识最后一个数据的标志位（`WLAST`）。
- **B (Write Response Channel) - 写响应通道**
    - **方向：** Slave -> Master
    - **作用：** Slave 在接收完整个 Burst 的**所有**写数据后，向 Master 返回该次写事务的最终执行状态（`BRESP`）。_(注：AXI 强制规定必须在整个 Burst 结束后才能返回一次 B 响应)_。

### 2. 读操作相关通道 (Read Transaction)

- **AR (Read Address Channel) - 读地址通道**
    - **方向：** Master -> Slave
    - **作用：** 传输读操作的起始物理地址（`ARADDR`）及对应的控制属性。
- **R (Read Data Channel) - 读数据通道**
    - **方向：** Slave -> Master
    - **作用：** 传输读取的数据（`RDATA`），并携带每个数据拍（Beat）的读响应状态（`RRESP`）以及标识最后一个数据的标志位（`RLAST`）。

---

## 五、 高性能基石：Outstanding 与乱序机制 (Out-of-Order)

**1. Outstanding (超前/未决传输)：**

- **定义：** Master 在未收到当前事务的数据（或 B 响应）之前，可持续在地址通道上发送多个新的地址请求。
- **价值：** 掩盖 DDR 或慢速总线的访问延迟 (Latency)，实现总线的流水线化作业，使数据通道吞吐量逼近理论峰值。

**2. ID 标签与乱序完成 (Out-of-Order Completion)：** AXI 为每次事务分配唯一的 ID 标签（如 `AWID`, `ARID`, `BID`, `RID`）。

- **不同 ID：** Slave 可根据内部处理状态，不按接收地址的顺序，**乱序**返回数据或响应。
- **相同 ID：** Slave 必须**严格按接收地址的先后顺序**返回数据。
- **交织 (Interleaving)：** 允许不同 ID 的数据在总线上交替出现，最大化带宽利用率。

---

## 六、 数据有效性与事务结果规范

**1. 写选通机制 (Write Strobe - `WSTRB`)：**

- 数据总线每 8-bit（1 Byte）对应 1 根 `WSTRB` 信号线。
- `WSTRB[n] == 1`：代表 `WDATA[(8n+7) : 8n]` 字节有效，Slave 必须将其写入。
- `WSTRB[n] == 0`：代表对应字节为无效填充 (Padding)，Slave 必须**屏蔽（Mask）**该字节，保持内存原值不变。

**2. 响应状态码 (Response Signaling - `BRESP` / `RRESP`)：**

- **`2'b00` (OKAY)：** 常规访问成功完成。
- **`2'b01` (EXOKAY)：** 独占访问（Exclusive Access）成功，用于原子操作。
- **`2'b10` (SLVERR)：** Slave 内部错误（如访问只读寄存器、外设内部 FIFO 崩溃）。
- **`2'b11` (DECERR)：** 译码错误。Interconnect 无法将 Master 发出的物理地址映射到任何有效且存在的 Slave 端口（通常为驱动配置了非法的物理地址）。

---

## 七、 寻址视角的软硬差异：虚拟地址 (VA) vs 物理地址 (PA)

**1. CPU 的视角 (软件侧)：**

- 开启 MMU 后，CPU 指令操作的所有内存地址均为**虚拟地址 (VA)**。

**2. AXI Master 的视角 (硬件侧)：**

- 挂载在 AXI 总线上的标准 DMA 引擎没有 MMU 机制，总线硬件**只认物理地址 (PA)**。

**3. 驱动开发的强约束 (DMA Mapping)：**

- 驱动工程师配置外设 DMA 描述符时，**绝对不能**直接写入虚拟地址（VA）。
- 必须通过系统级 DMA API（如 Linux 的 `dma_map_single`），将 VA 转换为总线可路由的 PA 后下发给硬件，否则必然触发 `DECERR` 甚至导致内存踩踏。

---

## 八、 综合应用案例：高速外设的总线双重性（以 eMMC 为例）

现代复杂外设（如 eMMC IP）通常具备两套独立总线接口，存在严格的控制面与数据面隔离：

**1. 控制面 (Control Plane) —— APB Slave：**

- CPU 作为 Master 通过低速 APB 总线读写 IP 的配置寄存器（配置参数、写入 DMA 首地址、触发 START 位）。

**2. 数据面 (Data Plane) —— AXI Master：**

- 传输触发后，IP 内部的 ADMA 引擎切换为 AXI Master。自主生成 `AWADDR` 等信号，通过高速 AXI 矩阵直接与 DDR 进行高吞吐数据搬运。

**3. 跨时钟域 (CDC) 约束：**

- 必须确保驱动控制面的 `i_apb_clk` 与驱动数据面（AXI 接口）的 `i_dma_clk` 均已使能。若 `i_dma_clk` 未给定时钟，AXI 侧状态机将挂死，无法响应握手信号。

---

## 九、 协议演进：AXI3 vs AXI4 核心差异

当前主流 SoC 设计多采用 AXI4 协议，其相较于 AXI3 的关键演进如下：

1. **突发长度扩展：** AXI4 `INCR` 类型的 `AxLEN` 扩展为 8-bit，支持单次最大 256 拍传输（AXI3 最高 16 拍）。
2. **移除 WID 与写交织：** AXI4 移除了写数据通道的 `WID` 信号，废除写交织机制，强制写数据必须严格按照 `AW` 通道接收地址的顺序发送，大幅降低了 Slave RTL 的设计复杂度。
3. **新增 QoS：** 引入 4-bit QoS 信号（`AWQOS` / `ARQOS`），支持 Interconnect 实现更精细的总线带宽分配与优先级仲裁。