## 一、 核心认知：APB 为什么要存在？

既然 AHB 这么牛，为什么不把 UART、I2C 都挂在 AHB 上？ 答案是：**成本和功耗。**

AHB 的协议太复杂了（需要处理流水线、Burst、各种突发类型），如果给一个简单的 GPIO 加上 AHB 接口，光是接口逻辑的面积可能比 GPIO 本身还大。

因此，APB 的设计哲学就是：**极度简单、极度省电。** 它放弃了所有高级特性，换取了外设设计的极简。作为驱动工程师，你需要知道 APB 的三个“没有”：

1. **没有流水线 (No Pipeline)：** 必须老老实实干完上一笔，再干下一笔。地址和数据绝对不会重叠。
2. **没有突发传输 (No Burst)：** 每次只能传一拍（通常是 32-bit）。你要写 4 个寄存器，对不起，必须发起 4 次独立完整的单次传输。
3. **没有主设备 (No Master)：** UART、I2C 这些 APB 外设永远只能是 **Slave（从设备）**。它们不能主动发起数据搬运，只能被动等着 CPU 或 DMA 来读写它们。

---

## 二、 核心信号线：APB 的“四步舞曲”

APB 的信号线非常少，去掉时钟（`PCLK`）和复位（`PRESETn`），干活的只有这几个：

- **`PADDR` (地址)** / **`PWRITE` (读写控制)** / **`PWDATA` / `PRDATA` (数据线)**：这几个顾名思义。
- **`PSELx` (片选 Select)：** 这是 APB 独有的！总线桥根据地址解码，拉高对应的 `PSEL` 线。比如地址是 UART0 的，就拉高 `PSEL_UART0`，此时只有 UART0 会醒过来听指令。
- **`PENABLE` (使能 Enable)：** 执行信号。告诉外设：“地址我给好了，现在立刻把数据吃进去（或吐出来）”。
- **`PREADY` (就绪 Ready)：** 外设告诉总线：“我搞定了”。（较老的 APB2 没有这个，较新的 APB3/4 才有）。

### APB 的“两拍绝对状态机” (Tick-Tock)

任何一次 APB 读写，无论多快，**至少需要 2 个 PCLK 时钟周期**，严格分为两个阶段：

1. **第一拍：Setup Phase（准备阶段）**
    - 总线把地址 `PADDR` 放好，拉高对应外设的 `PSEL`。
    - 此时 `PENABLE` 保持为 `0`。
    - **意义：** 给外设内部的电路一点时间，让它准备好接收或发送。
2. **第二拍：Access Phase（访问阶段）**
    - 总线把 `PENABLE` 拉高为 `1`。
    - 如果是写，外设在这个周期把 `PWDATA` 存入寄存器；如果是读，外设把状态放到 `PRDATA` 上。
    - **意义：** 真正的数据交接。只要 `PREADY` 为 1，这笔传输就彻底结束，立刻回到 Idle 状态。

---

## 三、 驱动工程师的 4 个致命踩坑点

因为 APB 处于系统总线的最末端，前面通常隔着一个 **AHB-to-APB Bridge（桥接器）**。这会导致驱动开发中出现一些非常经典的 Bug。

### 坑 1：时钟未开导致的 Bus Fault (最常见死机！)

- **硬件现实：** APB 外设极其抠门，为了省电，SoC 默认会把所有 APB 外设的时钟（`PCLK`）关掉。
- **驱动踩坑：** 你写了一个 I2C 驱动，上来第一行代码就是 `writel(0x01, I2C_CTRL_REG);`。结果系统瞬间 **Kernel Panic / Data Abort**。
- **根本原因：** I2C 的 `PCLK` 没开！AHB 桥把你的写请求发到 APB 上，但 I2C 是“死”的，永远不会回应 `PREADY`。总线桥等不到回应，只能向 CPU 抛出一个总线错误（Error）。
- **铁律：** **在读写任何 APB 寄存器之前，必须先去 RCC/CRG（时钟控制器）中打开该外设的 APB 时钟！**

### 坑 2：“写缓冲”引发的幽灵 Bug (Write Posting)

- **硬件现实：** 因为 APB 很慢，AHB 桥为了不卡住 CPU，通常带有**写缓冲（Write Buffer）**。当 CPU 执行 `writel()` 写一个 APB 寄存器时，数据一扔给 AHB 桥，CPU 就以为写完了，继续往下跑。但实际上，数据还在桥里排队，要过几个周期才真正写到 APB 外设里。
- **驱动踩坑：** 你在中断服务函数里，写寄存器清除了中断标志位，然后立刻退出中断（`return IRQ_HANDLED;`）。结果刚退出，中断又触发了！
- **根本原因：** 你写清除标志位的指令还在 AHB 桥里“飞”，还没落到 APB 外设里。CPU 退出中断时，外设的中断线还是拉高的。
- **铁律：** **写完清除中断标志位的寄存器后，立刻用 `readl()` 读一次那个寄存器（Dummy Read）。** 读操作是同步的，它会强制 AHB 桥把之前缓冲的“写”全部冲刷到底层，确保中断真正被清掉。

### 坑 3：在中断里疯狂轮询 APB 状态寄存器

- **硬件现实：** APB 时钟通常比 CPU 时钟慢得多（比如 CPU 1GHz，APB 只有 50MHz）。每一次对 APB 寄存器的读操作（`readl`），CPU 都需要穿过 AHB 桥，经历 APB 的 Setup 和 Access 两拍，还会触发 Wait State。
- **驱动踩坑：** `while (!(readl(UART_STATUS) & TX_EMPTY));` 如果在极度要求性能的代码（如 FIQ 快速中断）里这样死等 APB 寄存器，会极大地浪费 CPU 算力，甚至堵塞整个总线。
- **对策：** 对于慢速外设，尽量用中断代替轮询；如果必须轮询，要有超时机制，且心里要清楚读一次 APB 是很昂贵的。

### 坑 4：读清零寄存器（Read-Clear）的陷阱

- **硬件现实：** 很多 APB 外设的中断状态寄存器设计为 **“读清零”（Read-Clear / RC）**，只要你读了它，硬件就自动把它的值清 0。
- **驱动踩坑：** 用 GDB 调试时，你单步执行到中断处理函数，顺手在 GDB 里 `p /x *0x40001000` 查看了一下状态寄存器。结果程序跑下去发现没有响应了。
- **根本原因：** GDB（调试器）的读也是一次真实的 APB 读操作！调试器帮你读了一次，硬件就把状态清零了，你的驱动代码再读的时候全是 0。
- **对策：** 调试 APB 寄存器时，留意手册里标注的 `RC` 属性。尽量让代码读到一个局部变量里再去查看，而不是反复读取物理地址。

---

## 四、 Debug 实战：如何看 APB 波形？

如果在调试诸如 SPI、I2C 底层时遇到死锁，拉出 APB 波形，非常容易看懂：

1. **有没有选中？** 看 **`PSEL`** 是否拉高。如果一直没拉高，说明地址配错了，或者总线桥没把请求转过来。
2. **有没有卡死？** 盯住 **`PENABLE`** 和 **`PREADY`**。
    - 如果 `PENABLE` 是 1，但 `PREADY` 持续保持为 0，说明**外设内部卡死了**（比如时钟没给、或者处于某种非预期状态），它迟迟无法完成这次读写。
3. **有没有报错？** 盯住 **`PSLVERR`** (Slave Error，较新的 APB4 才有)。
    - 如果读写某寄存器时 `PSLVERR` 变高了，说明硬件外设主动拒绝了你的访问（比如：只读寄存器你非要写，或者试图在非特权模式下访问安全寄存器）。

## 总结

在驱动工程师的眼里： **AHB** 是需要小心翼翼处理边界（1KB）、对齐和带宽霸占的**重量级选手**。 **APB** 则是极其简单、但**极度缓慢**的**轻量级外设**。对 APB 编程，最重要的就是**开时钟（防死机）**和**读回刷（防假写）**！